
T1B4C 000:270 SEGGER J-Link V5.10h Log File (0001ms, 0260ms total)
T1B4C 000:270 DLL Compiled: Jan 21 2016 19:24:29 (0001ms, 0260ms total)
T1B4C 000:270 Logging started @ 2016-02-17 15:38 (0001ms, 0260ms total)
T1B4C 000:271 JLINK_SetWarnOutHandler(...) (0000ms, 0260ms total)
T1B4C 000:271 JLINK_OpenEx(...)
Firmware: J-Link OB-SAM3U128-V2-NordicSemi compiled Jan 21 2016 17:58:20
Hardware: V1.00
S/N: 682614334  returns O.K. (0256ms, 0516ms total)
T1B4C 000:528 JLINK_SetErrorOutHandler(...) (0000ms, 0516ms total)
T1B4C 000:528 JLINK_ExecCommand("ProjectFile = "S:\nrf_bike_project\Bike_monitoring_nrf\hub\JLinkSettings.ini"", ...)  returns 0x00 (0000ms, 0516ms total)
T1B4C 000:528 JLINK_ExecCommand("Device = nRF52832_xxAA", ...)Device "NRF52832_XXAA" selected.  returns 0x00 (0001ms, 0517ms total)
T1B4C 000:529 JLINK_ExecCommand("DisableConnectionTimeout", ...)  returns 0x01 (0000ms, 0517ms total)
T1B4C 000:529 JLINK_GetHardwareVersion()  returns 0x2710 (0000ms, 0517ms total)
T1B4C 000:529 JLINK_GetDLLVersion()  returns 51008 (0000ms, 0517ms total)
T1B4C 000:529 JLINK_GetFirmwareString(...) (0000ms, 0517ms total)
T1B4C 000:529 JLINK_GetDLLVersion()  returns 51008 (0000ms, 0517ms total)
T1B4C 000:529 JLINK_GetCompileDateTime() (0000ms, 0517ms total)
T1B4C 000:529 JLINK_GetFirmwareString(...) (0000ms, 0517ms total)
T1B4C 000:529 JLINK_GetHardwareVersion()  returns 0x2710 (0000ms, 0517ms total)
T1B4C 000:530 JLINK_TIF_Select(JLINKARM_TIF_SWD)  returns 0x00 (0000ms, 0517ms total)
T1B4C 000:530 JLINK_SetSpeed(5000) (0000ms, 0517ms total)
T1B4C 000:530 JLINK_GetId() >0x108 TIF>Found SWD-DP with ID 0x2BA01477 >0x0D TIF> >0x28 TIF> >0x0D TIF> >0x28 TIF> >0x0D TIF> >0x28 TIF> >0x0D TIF> >0x28 TIF> >0x35 TIF> >0x0D TIF> >0x28 TIF> >0x0D TIF> >0x28 TIF> >0x35 TIF> >0x35 TIF> >0x35 TIF> >0x0D TIF> >0x28 TIF> >0x0D TIF> >0x28 TIF> >0x0D TIF> >0x28 TIF> >0x35 TIF> >0x35 TIF> >0x0D TIF> >0x28 TIF> >0x35 TIF> >0x35 TIF>Found Cortex-M4 r0p1, Little endian. -- CPU_ReadMem(4 bytes @ 0xE000EDF0) -- CPU_WriteMem(4 bytes @ 0xE000EDF0)
 -- CPU_ReadMem(4 bytes @ 0xE0002000)FPUnit: 6 code (BP) slots and 2 literal slots -- CPU_ReadMem(4 bytes @ 0xE000EDFC) -- CPU_WriteMem(4 bytes @ 0xE000EDFC) -- CPU_ReadMem(4 bytes @ 0xE0001000) -- CPU_WriteMem(4 bytes @ 0xE0001000) -- CPU_ReadMem(4 bytes @ 0xE000ED88) -- CPU_WriteMem(4 bytes @ 0xE000ED88) -- CPU_ReadMem(4 bytes @ 0xE000ED88) -- CPU_WriteMem(4 bytes @ 0xE000ED88)CoreSight components:ROMTbl 0 @ E00FF000 -- CPU_ReadMem(16 bytes @ 0xE00FF000) -- CPU_ReadMem(16 bytes @ 0xE000EFF0)
 -- CPU_ReadMem(16 bytes @ 0xE000EFE0)ROMTbl 0 [0]: FFF0F000, CID: B105E00D, PID: 000BB00C SCS -- CPU_ReadMem(16 bytes @ 0xE0001FF0) -- CPU_ReadMem(16 bytes @ 0xE0001FE0)ROMTbl 0 [1]: FFF02000, CID: B105E00D, PID: 003BB002 DWT -- CPU_ReadMem(16 bytes @ 0xE0002FF0) -- CPU_ReadMem(16 bytes @ 0xE0002FE0)ROMTbl 0 [2]: FFF03000, CID: B105E00D, PID: 002BB003 FPB -- CPU_ReadMem(16 bytes @ 0xE0000FF0) -- CPU_ReadMem(16 bytes @ 0xE0000FE0)ROMTbl 0 [3]: FFF01000, CID: B105E00D, PID: 003BB001 ITM
 -- CPU_ReadMem(16 bytes @ 0xE00FF010) -- CPU_ReadMem(16 bytes @ 0xE0040FF0) -- CPU_ReadMem(16 bytes @ 0xE0040FE0)ROMTbl 0 [4]: FFF41000, CID: B105900D, PID: 000BB9A1 TPIU -- CPU_ReadMem(16 bytes @ 0xE0041FF0) -- CPU_ReadMem(16 bytes @ 0xE0041FE0)ROMTbl 0 [5]: FFF42000, CID: B105900D, PID: 000BB925 ETM >0x35 TIF>  returns 0x2BA01477 (0024ms, 0541ms total)
T1B4C 000:554 JLINK_GetDLLVersion()  returns 51008 (0000ms, 0541ms total)
T1B4C 000:554 JLINK_CORE_GetFound()  returns 0xE0000FF (0000ms, 0541ms total)
T1B4C 000:554 JLINK_GetDebugInfo(0x100) -- Value=0xE00FF000  returns 0x00 (0000ms, 0541ms total)
T1B4C 000:554 JLINK_GetDebugInfo(0x100) -- Value=0xE00FF000  returns 0x00 (0000ms, 0541ms total)
T1B4C 000:554 JLINK_GetDebugInfo(0x101) -- Value=0xE0041000  returns 0x00 (0000ms, 0541ms total)
T1B4C 000:554 JLINK_GetDebugInfo(0x102) -- Value=0x00000000  returns 0x00 (0000ms, 0541ms total)
T1B4C 000:554 JLINK_GetDebugInfo(0x103) -- Value=0xE0040000  returns 0x00 (0000ms, 0541ms total)
T1B4C 000:554 JLINK_GetDebugInfo(0x104) -- Value=0xE0000000  returns 0x00 (0000ms, 0541ms total)
T1B4C 000:554 JLINK_GetDebugInfo(0x105) -- Value=0xE0001000  returns 0x00 (0000ms, 0541ms total)
T1B4C 000:554 JLINK_GetDebugInfo(0x106) -- Value=0xE0002000  returns 0x00 (0000ms, 0541ms total)
T1B4C 000:554 JLINK_GetDebugInfo(0x107) -- Value=0xE000E000  returns 0x00 (0000ms, 0541ms total)
T1B4C 000:554 JLINK_GetDebugInfo(0x10C) -- Value=0xE000EDF0  returns 0x00 (0000ms, 0541ms total)
T1B4C 000:554 JLINK_ReadMemU32(0xE000EF40, 0x0001 Items, ...) -- CPU is running -- CPU_ReadMem(4 bytes @ 0xE000EF40) - Data: 21 00 11 10  returns 0x01 (0001ms, 0542ms total)
T1B4C 000:555 JLINK_ReadMemU32(0xE000EF44, 0x0001 Items, ...) -- CPU is running -- CPU_ReadMem(4 bytes @ 0xE000EF44) - Data: 11 00 00 11  returns 0x01 (0000ms, 0542ms total)
T1B4C 000:555 JLINK_ReadMemU32(0xE000ED00, 0x0001 Items, ...) -- CPU is running -- CPU_ReadMem(4 bytes @ 0xE000ED00) - Data: 41 C2 0F 41  returns 0x01 (0001ms, 0543ms total)
T1B4C 000:556 JLINK_SetResetType(JLINKARM_RESET_TYPE_NORMAL)  returns JLINKARM_RESET_TYPE_NORMAL (0000ms, 0543ms total)
T1B4C 000:556 JLINK_Reset() -- CPU is running -- CPU_WriteMem(4 bytes @ 0xE000EDF0) -- CPU is running -- CPU_WriteMem(4 bytes @ 0xE000EDFC) >0x35 TIF> -- CPU is running -- CPU_WriteMem(4 bytes @ 0xE000ED0C) -- CPU is running -- CPU_ReadMem(4 bytes @ 0xE000EDF0) -- CPU is running -- CPU_ReadMem(4 bytes @ 0xE000EDF0) -- CPU is running -- CPU_WriteMem(4 bytes @ 0xE000EDF0) -- CPU is running -- CPU_WriteMem(4 bytes @ 0xE000EDFC) -- CPU is running -- CPU_ReadMem(4 bytes @ 0xE000EDF0)
 -- CPU_WriteMem(4 bytes @ 0xE0002000) -- CPU_ReadMem(4 bytes @ 0xE000EDFC) -- CPU_ReadMem(4 bytes @ 0xE0001000) (0021ms, 0564ms total)
T1B4C 000:577 JLINK_ReadReg(R15 (PC))  returns 0x00000518 (0000ms, 0564ms total)
T1B4C 000:577 JLINK_ReadReg(XPSR)  returns 0x01000000 (0000ms, 0564ms total)
T1B4C 000:577 JLINK_Halt()  returns 0x00 (0000ms, 0564ms total)
T1B4C 000:577 JLINK_IsHalted()  returns TRUE (0000ms, 0564ms total)
T1B4C 000:577 JLINK_ReadMemU32(0xE000EDF0, 0x0001 Items, ...) -- CPU_ReadMem(4 bytes @ 0xE000EDF0) - Data: 03 00 03 00  returns 0x01 (0001ms, 0565ms total)
T1B4C 000:578 JLINK_WriteU32(0xE000EDF0, 0xA05F0003) -- CPU_WriteMem(4 bytes @ 0xE000EDF0)  returns 0x00 (0001ms, 0566ms total)
T1B4C 000:579 JLINK_WriteU32(0xE000EDFC, 0x01000000) -- CPU_WriteMem(4 bytes @ 0xE000EDFC)  returns 0x00 (0000ms, 0566ms total)
T1B4C 000:579 JLINK_GetHWStatus(...)  returns 0x00 (0001ms, 0567ms total)
T1B4C 000:580 JLINK_GetNumBPUnits(Type = 0xFFFFFF00)  returns 0x06 (0000ms, 0567ms total)
T1B4C 000:580 JLINK_GetNumBPUnits(Type = 0xF0)  returns 0x2000 (0000ms, 0567ms total)
T1B4C 000:580 JLINK_GetNumWPUnits()  returns 0x04 (0000ms, 0567ms total)
T1B4C 000:580 JLINK_GetSpeed()  returns 0x3E8 (0000ms, 0567ms total)
T1B4C 000:580 JLINK_ReadMemU32(0xE000E004, 0x0001 Items, ...) -- CPU_ReadMem(4 bytes @ 0xE000E004) - Data: 01 00 00 00  returns 0x01 (0001ms, 0568ms total)
T1B4C 000:581 JLINK_ReadMemU32(0xE000E004, 0x0001 Items, ...) -- CPU_ReadMem(4 bytes @ 0xE000E004) - Data: 01 00 00 00  returns 0x01 (0001ms, 0569ms total)
T1B4C 000:582 JLINK_WriteMem(0xE0001000, 0x001C Bytes, ...) - Data: 01 00 00 00 00 00 00 00 00 00 00 00 00 00 00 00 ... -- CPU_WriteMem(28 bytes @ 0xE0001000)  returns 0x1C (0001ms, 0570ms total)
T1B4C 000:583 JLINK_ReadMem (0xE0001000, 0x001C Bytes, ...) -- CPU_ReadMem(28 bytes @ 0xE0001000) - Data: 01 00 00 40 00 00 00 00 00 00 00 00 00 00 00 00 ...  returns 0x00 (0001ms, 0571ms total)
T1B4C 000:584 JLINK_ReadReg(R15 (PC))  returns 0x00000518 (0000ms, 0571ms total)
T1B4C 000:584 JLINK_ReadReg(XPSR)  returns 0x01000000 (0000ms, 0571ms total)
T1B4C 000:642 JLINK_SetResetType(JLINKARM_RESET_TYPE_NORMAL)  returns JLINKARM_RESET_TYPE_NORMAL (0000ms, 0571ms total)
T1B4C 000:642 JLINK_Reset() -- CPU_WriteMem(4 bytes @ 0xE000EDF0) -- CPU_WriteMem(4 bytes @ 0xE000EDFC) >0x35 TIF> -- CPU_WriteMem(4 bytes @ 0xE000ED0C) -- CPU_ReadMem(4 bytes @ 0xE000EDF0) -- CPU_ReadMem(4 bytes @ 0xE000EDF0) -- CPU_WriteMem(4 bytes @ 0xE000EDF0) -- CPU_WriteMem(4 bytes @ 0xE000EDFC) -- CPU is running -- CPU_ReadMem(4 bytes @ 0xE000EDF0) -- CPU_WriteMem(4 bytes @ 0xE0002000) -- CPU_ReadMem(4 bytes @ 0xE000EDFC) -- CPU_ReadMem(4 bytes @ 0xE0001000) (0023ms, 0594ms total)
T1B4C 000:665 JLINK_ReadReg(R15 (PC))  returns 0x00000518 (0000ms, 0594ms total)
T1B4C 000:665 JLINK_ReadReg(XPSR)  returns 0x01000000 (0000ms, 0594ms total)
T1B4C 000:666 JLINK_ReadMem (0x00000418, 0x003C Bytes, ...) -- CPU_ReadMem(128 bytes @ 0x00000400) -- Updating C cache (128 bytes @ 0x00000400) -- Read from C cache (60 bytes @ 0x00000418) - Data: 01 D1 00 F0 31 F8 AF F2 09 0E BA E8 0F 00 13 F0 ...  returns 0x00 (0002ms, 0596ms total)
T1B4C 000:668 JLINK_ReadMem (0x00000454, 0x003C Bytes, ...) -- CPU_ReadMem(64 bytes @ 0x00000480) -- Updating C cache (64 bytes @ 0x00000480) -- Read from C cache (60 bytes @ 0x00000454) - Data: 70 47 00 00 00 23 00 24 00 25 00 26 10 3A 28 BF ...  returns 0x00 (0001ms, 0597ms total)
T1B4C 000:669 JLINK_ReadMem (0x00000490, 0x003C Bytes, ...) -- CPU_ReadMem(64 bytes @ 0x000004C0) -- Updating C cache (64 bytes @ 0x000004C0) -- Read from C cache (60 bytes @ 0x00000490) - Data: 8B F8 03 B4 FF F7 F2 FF 03 BC 00 F0 93 F8 00 00 ...  returns 0x00 (0002ms, 0599ms total)
T1B4C 000:671 JLINK_ReadMem (0x000004CC, 0x003C Bytes, ...) -- CPU_ReadMem(64 bytes @ 0x00000500) -- Updating C cache (64 bytes @ 0x00000500) -- Read from C cache (60 bytes @ 0x000004CC) - Data: 00 BF 00 BF 00 BF 00 BF 00 BF 00 BF 00 BF 00 BF ...  returns 0x00 (0001ms, 0600ms total)
T1B4C 000:672 JLINK_ReadMem (0x00000508, 0x003C Bytes, ...) -- CPU_ReadMem(64 bytes @ 0x00000540) -- Updating C cache (64 bytes @ 0x00000540) -- Read from C cache (60 bytes @ 0x00000508) - Data: 00 BF 00 BF 00 BF 00 BF 00 BF C5 D1 70 47 00 00 ...  returns 0x00 (0001ms, 0601ms total)
T0244 001:477 JLINK_SetBPEx(Addr = 0x000009B8, Type = 0xFFFFFFF2)  returns 0x00000001 (0000ms, 0601ms total)
T0244 001:477 JLINK_SetBPEx(Addr = 0x000009D0, Type = 0xFFFFFFF2)  returns 0x00000002 (0000ms, 0601ms total)
T0244 001:477 JLINK_SetBPEx(Addr = 0x00000A78, Type = 0xFFFFFFF2)  returns 0x00000003 (0000ms, 0601ms total)
T0244 001:477 JLINK_Go() -- CPU_WriteMem(4 bytes @ 0xE0002000) -- CPU_WriteMem(4 bytes @ 0xE0002000) -- CPU_WriteMem(4 bytes @ 0xE0002000) -- CPU_ReadMem(4 bytes @ 0xE0001000) -- CPU_WriteMem(4 bytes @ 0xE0002008) -- CPU_WriteMem(4 bytes @ 0xE000200C) -- CPU_WriteMem(4 bytes @ 0xE0002010) -- CPU_WriteMem(4 bytes @ 0xE0002014) -- CPU_WriteMem(4 bytes @ 0xE0002018) -- CPU_WriteMem(4 bytes @ 0xE000201C) -- CPU_WriteMem(4 bytes @ 0xE0001004) (0007ms, 0608ms total)
T0244 001:585 JLINK_IsHalted()  returns TRUE (0006ms, 0614ms total)
T0244 001:591 JLINK_Halt()  returns 0x00 (0000ms, 0608ms total)
T0244 001:591 JLINK_IsHalted()  returns TRUE (0000ms, 0608ms total)
T0244 001:591 JLINK_IsHalted()  returns TRUE (0000ms, 0608ms total)
T0244 001:591 JLINK_IsHalted()  returns TRUE (0000ms, 0608ms total)
T0244 001:591 JLINK_ReadReg(R15 (PC))  returns 0x000009B8 (0000ms, 0608ms total)
T0244 001:591 JLINK_ReadReg(XPSR)  returns 0x21000000 (0000ms, 0608ms total)
T0244 001:591 JLINK_ClrBPEx(BPHandle = 0x00000001)  returns 0x00 (0000ms, 0608ms total)
T0244 001:591 JLINK_ClrBPEx(BPHandle = 0x00000002)  returns 0x00 (0000ms, 0608ms total)
T0244 001:591 JLINK_ClrBPEx(BPHandle = 0x00000003)  returns 0x00 (0000ms, 0608ms total)
T0244 001:591 JLINK_ReadMemU32(0xE000ED30, 0x0001 Items, ...) -- CPU_ReadMem(4 bytes @ 0xE000ED30) - Data: 02 00 00 00  returns 0x01 (0001ms, 0609ms total)
T0244 001:592 JLINK_ReadMemU32(0xE0001028, 0x0001 Items, ...) -- CPU_ReadMem(4 bytes @ 0xE0001028) - Data: 00 00 00 00  returns 0x01 (0000ms, 0609ms total)
T0244 001:592 JLINK_ReadMemU32(0xE0001038, 0x0001 Items, ...) -- CPU_ReadMem(4 bytes @ 0xE0001038) - Data: 00 02 00 00  returns 0x01 (0001ms, 0610ms total)
T0244 001:593 JLINK_ReadMemU32(0xE0001048, 0x0001 Items, ...) -- CPU_ReadMem(4 bytes @ 0xE0001048) - Data: 00 00 00 00  returns 0x01 (0000ms, 0610ms total)
T0244 001:593 JLINK_ReadMemU32(0xE0001058, 0x0001 Items, ...) -- CPU_ReadMem(4 bytes @ 0xE0001058) - Data: 00 00 00 00  returns 0x01 (0001ms, 0611ms total)
T0244 001:594 JLINK_ReadReg(R0)  returns 0x20000068 (0000ms, 0611ms total)
T0244 001:594 JLINK_ReadReg(R1)  returns 0x20002068 (0000ms, 0611ms total)
T0244 001:594 JLINK_ReadReg(R2)  returns 0x20002068 (0000ms, 0611ms total)
T0244 001:594 JLINK_ReadReg(R3)  returns 0x20002068 (0000ms, 0611ms total)
T0244 001:594 JLINK_ReadReg(R4)  returns 0x00000000 (0000ms, 0611ms total)
T0244 001:594 JLINK_ReadReg(R5)  returns 0x20000004 (0000ms, 0611ms total)
T0244 001:594 JLINK_ReadReg(R6)  returns 0x00000000 (0000ms, 0611ms total)
T0244 001:594 JLINK_ReadReg(R7)  returns 0x00000000 (0000ms, 0611ms total)
T0244 001:594 JLINK_ReadReg(R8)  returns 0x00000000 (0000ms, 0611ms total)
T0244 001:594 JLINK_ReadReg(R9)  returns 0x00000000 (0000ms, 0611ms total)
T0244 001:594 JLINK_ReadReg(R10)  returns 0x00000AD0 (0000ms, 0611ms total)
T0244 001:594 JLINK_ReadReg(R11)  returns 0x00000000 (0000ms, 0611ms total)
T0244 001:594 JLINK_ReadReg(R12)  returns 0x20000044 (0000ms, 0611ms total)
T0244 001:594 JLINK_ReadReg(R13 (SP))  returns 0x20004068 (0000ms, 0611ms total)
T0244 001:594 JLINK_ReadReg(R14)  returns 0x0000048F (0001ms, 0612ms total)
T0244 001:595 JLINK_ReadReg(R15 (PC))  returns 0x000009B8 (0000ms, 0612ms total)
T0244 001:595 JLINK_ReadReg(XPSR)  returns 0x21000000 (0000ms, 0612ms total)
T0244 001:595 JLINK_ReadReg(MSP)  returns 0x20004068 (0000ms, 0612ms total)
T0244 001:595 JLINK_ReadReg(PSP)  returns 0x00000000 (0000ms, 0612ms total)
T0244 001:595 JLINK_ReadReg(CFBP)  returns 0x04000000 (0000ms, 0612ms total)
T0244 001:595 JLINK_ReadReg(FPSCR)  returns 0x03000000 (0010ms, 0622ms total)
T0244 001:605 JLINK_ReadReg(FPS0)  returns 0x00000000 (0000ms, 0622ms total)
T0244 001:605 JLINK_ReadReg(FPS1)  returns 0x00000000 (0000ms, 0622ms total)
T0244 001:605 JLINK_ReadReg(FPS2)  returns 0x00000000 (0000ms, 0622ms total)
T0244 001:605 JLINK_ReadReg(FPS3)  returns 0x00000000 (0000ms, 0622ms total)
T0244 001:605 JLINK_ReadReg(FPS4)  returns 0x00000000 (0000ms, 0622ms total)
T0244 001:605 JLINK_ReadReg(FPS5)  returns 0x00000000 (0000ms, 0622ms total)
T0244 001:605 JLINK_ReadReg(FPS6)  returns 0x00000000 (0000ms, 0622ms total)
T0244 001:605 JLINK_ReadReg(FPS7)  returns 0x00000000 (0000ms, 0622ms total)
T0244 001:605 JLINK_ReadReg(FPS8)  returns 0x00000000 (0000ms, 0622ms total)
T0244 001:605 JLINK_ReadReg(FPS9)  returns 0x00000000 (0000ms, 0622ms total)
T0244 001:605 JLINK_ReadReg(FPS10)  returns 0x00000000 (0000ms, 0622ms total)
T0244 001:605 JLINK_ReadReg(FPS11)  returns 0x00000000 (0000ms, 0622ms total)
T0244 001:605 JLINK_ReadReg(FPS12)  returns 0x00000000 (0000ms, 0622ms total)
T0244 001:605 JLINK_ReadReg(FPS13)  returns 0x00000000 (0000ms, 0622ms total)
T0244 001:605 JLINK_ReadReg(FPS14)  returns 0x00000000 (0000ms, 0622ms total)
T0244 001:605 JLINK_ReadReg(FPS15)  returns 0x00000000 (0000ms, 0622ms total)
T0244 001:605 JLINK_ReadReg(FPS16)  returns 0x00000000 (0000ms, 0622ms total)
T0244 001:605 JLINK_ReadReg(FPS17)  returns 0x00000000 (0000ms, 0622ms total)
T0244 001:605 JLINK_ReadReg(FPS18)  returns 0x00000000 (0000ms, 0622ms total)
T0244 001:605 JLINK_ReadReg(FPS19)  returns 0x00000000 (0000ms, 0622ms total)
T0244 001:605 JLINK_ReadReg(FPS20)  returns 0x00000000 (0000ms, 0622ms total)
T0244 001:605 JLINK_ReadReg(FPS21)  returns 0x00000000 (0000ms, 0622ms total)
T0244 001:605 JLINK_ReadReg(FPS22)  returns 0x00000000 (0000ms, 0622ms total)
T0244 001:605 JLINK_ReadReg(FPS23)  returns 0x00000000 (0000ms, 0622ms total)
T0244 001:605 JLINK_ReadReg(FPS24)  returns 0x00000000 (0000ms, 0622ms total)
T0244 001:605 JLINK_ReadReg(FPS25)  returns 0x00000000 (0000ms, 0622ms total)
T0244 001:605 JLINK_ReadReg(FPS26)  returns 0x00000000 (0000ms, 0622ms total)
T0244 001:605 JLINK_ReadReg(FPS27)  returns 0x00000000 (0000ms, 0622ms total)
T0244 001:605 JLINK_ReadReg(FPS28)  returns 0x00000000 (0000ms, 0622ms total)
T0244 001:605 JLINK_ReadReg(FPS29)  returns 0x00000000 (0000ms, 0622ms total)
T0244 001:605 JLINK_ReadReg(FPS30)  returns 0x00000000 (0000ms, 0622ms total)
T0244 001:605 JLINK_ReadReg(FPS31)  returns 0x00000000 (0000ms, 0622ms total)
T1B4C 001:605 JLINK_ReadMem (0x00000000, 0x0004 Bytes, ...) -- CPU_ReadMem(64 bytes @ 0x00000000) -- Updating C cache (64 bytes @ 0x00000000) -- Read from C cache (4 bytes @ 0x00000000) - Data: 68 40 00 20  returns 0x00 (0002ms, 0624ms total)
T1B4C 001:607 JLINK_ReadMemU32(0xE0001004, 0x0001 Items, ...) -- CPU_ReadMem(4 bytes @ 0xE0001004) - Data: C7 22 00 00  returns 0x01 (0001ms, 0625ms total)
T1B4C 001:611 JLINK_ReadMem (0x000009B6, 0x0002 Bytes, ...) -- CPU_ReadMem(64 bytes @ 0x00000980) -- Updating C cache (64 bytes @ 0x00000980) -- Read from C cache (2 bytes @ 0x000009B6) - Data: 10 BD  returns 0x00 (0001ms, 0626ms total)
T1B4C 001:612 JLINK_ReadMem (0x000009B8, 0x003C Bytes, ...) -- CPU_ReadMem(64 bytes @ 0x000009C0) -- Updating C cache (64 bytes @ 0x000009C0) -- Read from C cache (60 bytes @ 0x000009B8) - Data: FF F7 F0 FF 0D 20 FF F7 DD FF FF F7 A9 FF FF F7 ...  returns 0x00 (0002ms, 0628ms total)
T0244 008:065 JLINK_Go() -- CPU_ReadMem(4 bytes @ 0xE0001000) -- CPU_WriteMem(4 bytes @ 0xE0002008) -- CPU_WriteMem(4 bytes @ 0xE000200C) -- CPU_WriteMem(4 bytes @ 0xE0002010) (0004ms, 0632ms total)
T0244 008:171 JLINK_IsHalted()  returns FALSE (0000ms, 0632ms total)
T0244 008:272 JLINK_IsHalted()  returns FALSE (0000ms, 0632ms total)
T0244 008:372 JLINK_IsHalted()  returns FALSE (0000ms, 0632ms total)
T0244 008:474 JLINK_IsHalted()  returns FALSE (0000ms, 0632ms total)
T0244 008:575 JLINK_IsHalted()  returns FALSE (0000ms, 0632ms total)
T0244 008:676 JLINK_ReadMemU32(0xE0001004, 0x0001 Items, ...) -- CPU is running -- CPU_ReadMem(4 bytes @ 0xE0001004) - Data: F5 E5 51 02  returns 0x01 (0000ms, 0632ms total)
T0244 008:677 JLINK_IsHalted()  returns FALSE (0001ms, 0633ms total)
T0244 008:778 JLINK_IsHalted()  returns FALSE (0000ms, 0632ms total)
T0244 008:880 JLINK_IsHalted()  returns FALSE (0000ms, 0632ms total)
T0244 008:982 JLINK_IsHalted()  returns FALSE (0000ms, 0632ms total)
T0244 009:083 JLINK_IsHalted()  returns FALSE (0000ms, 0632ms total)
T0244 009:185 JLINK_IsHalted()  returns FALSE (0000ms, 0632ms total)
T0244 009:286 JLINK_ReadMemU32(0xE0001004, 0x0001 Items, ...) -- CPU is running -- CPU_ReadMem(4 bytes @ 0xE0001004) - Data: 90 3B A7 04  returns 0x01 (0000ms, 0632ms total)
T0244 009:287 JLINK_IsHalted()  returns FALSE (0001ms, 0633ms total)
T0244 009:388 JLINK_IsHalted()  returns FALSE (0000ms, 0632ms total)
T0244 009:489 JLINK_IsHalted()  returns FALSE (0000ms, 0632ms total)
T0244 009:590 JLINK_IsHalted()  returns FALSE (0000ms, 0632ms total)
T0244 009:692 JLINK_IsHalted()  returns FALSE (0000ms, 0632ms total)
T0244 009:793 JLINK_IsHalted()  returns FALSE (0000ms, 0632ms total)
T0244 009:895 JLINK_ReadMemU32(0xE0001004, 0x0001 Items, ...) -- CPU is running -- CPU_ReadMem(4 bytes @ 0xE0001004) - Data: 26 4E FB 06  returns 0x01 (0000ms, 0632ms total)
T0244 009:896 JLINK_IsHalted()  returns FALSE (0001ms, 0633ms total)
T0244 009:997 JLINK_IsHalted()  returns FALSE (0000ms, 0632ms total)
T0244 010:099 JLINK_IsHalted()  returns FALSE (0000ms, 0632ms total)
T0244 010:200 JLINK_IsHalted()  returns FALSE (0000ms, 0632ms total)
T0244 010:301 JLINK_IsHalted()  returns FALSE (0000ms, 0632ms total)
T0244 010:401 JLINK_IsHalted()  returns FALSE (0000ms, 0632ms total)
T0244 010:503 JLINK_ReadMemU32(0xE0001004, 0x0001 Items, ...) -- CPU is running -- CPU_ReadMem(4 bytes @ 0xE0001004) - Data: 23 EB 4E 09  returns 0x01 (0000ms, 0632ms total)
T0244 010:505 JLINK_IsHalted()  returns FALSE (0000ms, 0632ms total)
T0244 010:606 JLINK_IsHalted()  returns FALSE (0000ms, 0632ms total)
T0244 010:707 JLINK_IsHalted()  returns FALSE (0000ms, 0632ms total)
T0244 010:809 JLINK_IsHalted()  returns FALSE (0000ms, 0632ms total)
T0244 010:910 JLINK_IsHalted()  returns FALSE (0000ms, 0632ms total)
T0244 011:012 JLINK_IsHalted()  returns FALSE (0000ms, 0632ms total)
T0244 011:113 JLINK_ReadMemU32(0xE0001004, 0x0001 Items, ...) -- CPU is running -- CPU_ReadMem(4 bytes @ 0xE0001004) - Data: 8B 99 A4 0B  returns 0x01 (0000ms, 0632ms total)
T0244 011:115 JLINK_IsHalted()  returns FALSE (0001ms, 0633ms total)
T0244 011:216 JLINK_IsHalted()  returns FALSE (0001ms, 0633ms total)
T0244 011:318 JLINK_IsHalted()  returns FALSE (0000ms, 0632ms total)
T0244 011:419 JLINK_IsHalted()  returns FALSE (0000ms, 0632ms total)
T0244 011:520 JLINK_IsHalted()  returns FALSE (0000ms, 0632ms total)
T0244 011:621 JLINK_IsHalted()  returns FALSE (0000ms, 0632ms total)
T0244 011:722 JLINK_ReadMemU32(0xE0001004, 0x0001 Items, ...) -- CPU is running -- CPU_ReadMem(4 bytes @ 0xE0001004) - Data: E0 86 F8 0D  returns 0x01 (0000ms, 0632ms total)
T0244 011:724 JLINK_IsHalted()  returns FALSE (0001ms, 0633ms total)
T0244 011:825 JLINK_IsHalted()  returns FALSE (0000ms, 0632ms total)
T0244 011:926 JLINK_IsHalted()  returns FALSE (0000ms, 0632ms total)
T0244 012:027 JLINK_IsHalted()  returns FALSE (0000ms, 0632ms total)
T0244 012:128 JLINK_IsHalted()  returns FALSE (0000ms, 0632ms total)
T0244 012:229 JLINK_IsHalted()  returns FALSE (0000ms, 0632ms total)
T0244 012:330 JLINK_ReadMemU32(0xE0001004, 0x0001 Items, ...) -- CPU is running -- CPU_ReadMem(4 bytes @ 0xE0001004) - Data: D1 EA 4B 10  returns 0x01 (0001ms, 0633ms total)
T0244 012:331 JLINK_IsHalted()  returns FALSE (0000ms, 0633ms total)
T0244 012:432 JLINK_IsHalted()  returns FALSE (0000ms, 0633ms total)
T0244 012:533 JLINK_IsHalted()  returns FALSE (0000ms, 0633ms total)
T0244 012:635 JLINK_IsHalted()  returns FALSE (0000ms, 0633ms total)
T0244 012:736 JLINK_Halt()  returns 0x00 (0006ms, 0639ms total)
T0244 012:742 JLINK_IsHalted()  returns TRUE (0000ms, 0639ms total)
T0244 012:742 JLINK_IsHalted()  returns TRUE (0000ms, 0639ms total)
T0244 012:742 JLINK_IsHalted()  returns TRUE (0000ms, 0639ms total)
T0244 012:742 JLINK_ReadReg(R15 (PC))  returns 0x00000A74 (0000ms, 0639ms total)
T0244 012:742 JLINK_ReadReg(XPSR)  returns 0x61000000 (0000ms, 0639ms total)
T0244 012:742 JLINK_ReadMemU32(0xE000ED30, 0x0001 Items, ...) -- CPU_ReadMem(4 bytes @ 0xE000ED30) - Data: 01 00 00 00  returns 0x01 (0001ms, 0640ms total)
T0244 012:743 JLINK_ReadMemU32(0xE0001028, 0x0001 Items, ...) -- CPU_ReadMem(4 bytes @ 0xE0001028) - Data: 00 00 00 00  returns 0x01 (0000ms, 0640ms total)
T0244 012:743 JLINK_ReadMemU32(0xE0001038, 0x0001 Items, ...) -- CPU_ReadMem(4 bytes @ 0xE0001038) - Data: 00 02 00 00  returns 0x01 (0001ms, 0641ms total)
T0244 012:744 JLINK_ReadMemU32(0xE0001048, 0x0001 Items, ...) -- CPU_ReadMem(4 bytes @ 0xE0001048) - Data: 00 00 00 00  returns 0x01 (0001ms, 0642ms total)
T0244 012:745 JLINK_ReadMemU32(0xE0001058, 0x0001 Items, ...) -- CPU_ReadMem(4 bytes @ 0xE0001058) - Data: 00 00 00 00  returns 0x01 (0000ms, 0642ms total)
T0244 012:745 JLINK_ReadReg(R0)  returns 0x00000000 (0000ms, 0642ms total)
T0244 012:745 JLINK_ReadReg(R1)  returns 0x40001000 (0000ms, 0642ms total)
T0244 012:745 JLINK_ReadReg(R2)  returns 0x50000508 (0000ms, 0642ms total)
T0244 012:745 JLINK_ReadReg(R3)  returns 0x00000000 (0000ms, 0642ms total)
T0244 012:745 JLINK_ReadReg(R4)  returns 0x00000000 (0000ms, 0642ms total)
T0244 012:745 JLINK_ReadReg(R5)  returns 0x20000004 (0000ms, 0642ms total)
T0244 012:745 JLINK_ReadReg(R6)  returns 0x00000000 (0000ms, 0642ms total)
T0244 012:745 JLINK_ReadReg(R7)  returns 0x00000000 (0000ms, 0642ms total)
T0244 012:745 JLINK_ReadReg(R8)  returns 0x00000000 (0000ms, 0642ms total)
T0244 012:745 JLINK_ReadReg(R9)  returns 0x00000000 (0000ms, 0642ms total)
T0244 012:745 JLINK_ReadReg(R10)  returns 0x00000AD0 (0000ms, 0642ms total)
T0244 012:745 JLINK_ReadReg(R11)  returns 0x00000000 (0000ms, 0642ms total)
T0244 012:745 JLINK_ReadReg(R12)  returns 0x20000044 (0000ms, 0642ms total)
T0244 012:745 JLINK_ReadReg(R13 (SP))  returns 0x20004014 (0000ms, 0642ms total)
T0244 012:745 JLINK_ReadReg(R14)  returns 0x000009D5 (0000ms, 0642ms total)
T0244 012:745 JLINK_ReadReg(R15 (PC))  returns 0x00000A74 (0000ms, 0642ms total)
T0244 012:745 JLINK_ReadReg(XPSR)  returns 0x61000000 (0000ms, 0642ms total)
T0244 012:745 JLINK_ReadReg(MSP)  returns 0x20004014 (0000ms, 0642ms total)
T0244 012:745 JLINK_ReadReg(PSP)  returns 0x00000000 (0000ms, 0642ms total)
T0244 012:745 JLINK_ReadReg(CFBP)  returns 0x04000000 (0000ms, 0642ms total)
T0244 012:745 JLINK_ReadReg(FPSCR)  returns 0x03000000 (0010ms, 0652ms total)
T0244 012:755 JLINK_ReadReg(FPS0)  returns 0x00000000 (0000ms, 0652ms total)
T0244 012:755 JLINK_ReadReg(FPS1)  returns 0x00000000 (0000ms, 0652ms total)
T0244 012:755 JLINK_ReadReg(FPS2)  returns 0x00000000 (0000ms, 0652ms total)
T0244 012:755 JLINK_ReadReg(FPS3)  returns 0x00000000 (0000ms, 0652ms total)
T0244 012:755 JLINK_ReadReg(FPS4)  returns 0x00000000 (0000ms, 0652ms total)
T0244 012:755 JLINK_ReadReg(FPS5)  returns 0x00000000 (0000ms, 0652ms total)
T0244 012:755 JLINK_ReadReg(FPS6)  returns 0x00000000 (0000ms, 0652ms total)
T0244 012:755 JLINK_ReadReg(FPS7)  returns 0x00000000 (0000ms, 0652ms total)
T0244 012:755 JLINK_ReadReg(FPS8)  returns 0x00000000 (0000ms, 0652ms total)
T0244 012:755 JLINK_ReadReg(FPS9)  returns 0x00000000 (0000ms, 0652ms total)
T0244 012:755 JLINK_ReadReg(FPS10)  returns 0x00000000 (0000ms, 0652ms total)
T0244 012:755 JLINK_ReadReg(FPS11)  returns 0x00000000 (0000ms, 0652ms total)
T0244 012:755 JLINK_ReadReg(FPS12)  returns 0x00000000 (0000ms, 0652ms total)
T0244 012:755 JLINK_ReadReg(FPS13)  returns 0x00000000 (0000ms, 0652ms total)
T0244 012:755 JLINK_ReadReg(FPS14)  returns 0x00000000 (0000ms, 0652ms total)
T0244 012:755 JLINK_ReadReg(FPS15)  returns 0x00000000 (0000ms, 0652ms total)
T0244 012:755 JLINK_ReadReg(FPS16)  returns 0x00000000 (0000ms, 0652ms total)
T0244 012:755 JLINK_ReadReg(FPS17)  returns 0x00000000 (0000ms, 0652ms total)
T0244 012:755 JLINK_ReadReg(FPS18)  returns 0x00000000 (0000ms, 0652ms total)
T0244 012:755 JLINK_ReadReg(FPS19)  returns 0x00000000 (0000ms, 0652ms total)
T0244 012:755 JLINK_ReadReg(FPS20)  returns 0x00000000 (0000ms, 0652ms total)
T0244 012:755 JLINK_ReadReg(FPS21)  returns 0x00000000 (0000ms, 0652ms total)
T0244 012:755 JLINK_ReadReg(FPS22)  returns 0x00000000 (0000ms, 0652ms total)
T0244 012:755 JLINK_ReadReg(FPS23)  returns 0x00000000 (0000ms, 0652ms total)
T0244 012:755 JLINK_ReadReg(FPS24)  returns 0x00000000 (0000ms, 0652ms total)
T0244 012:755 JLINK_ReadReg(FPS25)  returns 0x00000000 (0000ms, 0652ms total)
T0244 012:755 JLINK_ReadReg(FPS26)  returns 0x00000000 (0000ms, 0652ms total)
T0244 012:755 JLINK_ReadReg(FPS27)  returns 0x00000000 (0000ms, 0652ms total)
T0244 012:755 JLINK_ReadReg(FPS28)  returns 0x00000000 (0000ms, 0652ms total)
T0244 012:755 JLINK_ReadReg(FPS29)  returns 0x00000000 (0000ms, 0652ms total)
T0244 012:755 JLINK_ReadReg(FPS30)  returns 0x00000000 (0000ms, 0652ms total)
T0244 012:755 JLINK_ReadReg(FPS31)  returns 0x00000000 (0000ms, 0652ms total)
T1B4C 012:756 JLINK_ReadMem (0x20004014, 0x0004 Bytes, ...) -- CPU_ReadMem(64 bytes @ 0x20004000) -- Updating C cache (64 bytes @ 0x20004000) -- Read from C cache (4 bytes @ 0x20004014) - Data: 03 00 00 00  returns 0x00 (0001ms, 0653ms total)
T1B4C 012:758 JLINK_ReadMem (0x00000000, 0x0004 Bytes, ...) -- CPU_ReadMem(64 bytes @ 0x00000000) -- Updating C cache (64 bytes @ 0x00000000) -- Read from C cache (4 bytes @ 0x00000000) - Data: 68 40 00 20  returns 0x00 (0001ms, 0654ms total)
T1B4C 012:759 JLINK_ReadMemU32(0xE0001004, 0x0001 Items, ...) -- CPU_ReadMem(4 bytes @ 0xE0001004) - Data: EB 3F D9 11  returns 0x01 (0002ms, 0656ms total)
T1B4C 012:762 JLINK_ReadMem (0x2000402C, 0x0004 Bytes, ...) -- Read from C cache (4 bytes @ 0x2000402C) - Data: 00 00 00 00  returns 0x00 (0000ms, 0656ms total)
T1B4C 012:767 JLINK_ReadMem (0x00000A74, 0x003C Bytes, ...) -- CPU_ReadMem(128 bytes @ 0x00000A40) -- Updating C cache (128 bytes @ 0x00000A40) -- Read from C cache (60 bytes @ 0x00000A74) - Data: 00 28 FB D0 03 48 4C 30 00 68 00 90 06 98 15 B0 ...  returns 0x00 (0002ms, 0658ms total)
T0244 016:489 JLINK_Step() -- Read from C cache (2 bytes @ 0x00000A74) -- CPU_ReadMem(4 bytes @ 0xE000ED18) -- CPU_WriteMem(4 bytes @ 0xE000ED18) -- CPU_ReadMem(4 bytes @ 0xE000ED18) -- CPU_WriteMem(4 bytes @ 0xE000ED18) -- Simulated  returns 0x00 (0003ms, 0661ms total)
T0244 016:492 JLINK_ReadReg(R15 (PC))  returns 0x00000A76 (0000ms, 0661ms total)
T0244 016:492 JLINK_ReadReg(XPSR)  returns 0x61000000 (0000ms, 0661ms total)
T0244 016:492 JLINK_Step() -- Read from C cache (2 bytes @ 0x00000A76) -- Simulated  returns 0x00 (0000ms, 0661ms total)
T0244 016:492 JLINK_ReadReg(R15 (PC))  returns 0x00000A70 (0000ms, 0661ms total)
T0244 016:492 JLINK_ReadReg(XPSR)  returns 0x61000000 (0000ms, 0661ms total)
T0244 016:492 JLINK_ReadMem (0x00000A6E, 0x0002 Bytes, ...) -- Read from C cache (2 bytes @ 0x00000A6E) - Data: 00 BF  returns 0x00 (0000ms, 0661ms total)
T0244 016:492 JLINK_ReadMem (0x00000A70, 0x003C Bytes, ...) -- Read from C cache (60 bytes @ 0x00000A70) - Data: 07 48 00 68 00 28 FB D0 03 48 4C 30 00 68 00 90 ...  returns 0x00 (0000ms, 0661ms total)
T0244 016:492 JLINK_ReadReg(R0)  returns 0x00000000 (0000ms, 0661ms total)
T0244 016:492 JLINK_ReadReg(R1)  returns 0x40001000 (0000ms, 0661ms total)
T0244 016:492 JLINK_ReadReg(R2)  returns 0x50000508 (0000ms, 0661ms total)
T0244 016:492 JLINK_ReadReg(R3)  returns 0x00000000 (0000ms, 0661ms total)
T0244 016:492 JLINK_ReadReg(R4)  returns 0x00000000 (0000ms, 0661ms total)
T0244 016:492 JLINK_ReadReg(R5)  returns 0x20000004 (0000ms, 0661ms total)
T0244 016:492 JLINK_ReadReg(R6)  returns 0x00000000 (0000ms, 0661ms total)
T0244 016:492 JLINK_ReadReg(R7)  returns 0x00000000 (0000ms, 0661ms total)
T0244 016:492 JLINK_ReadReg(R8)  returns 0x00000000 (0000ms, 0661ms total)
T0244 016:492 JLINK_ReadReg(R9)  returns 0x00000000 (0000ms, 0661ms total)
T0244 016:492 JLINK_ReadReg(R10)  returns 0x00000AD0 (0001ms, 0662ms total)
T0244 016:493 JLINK_ReadReg(R11)  returns 0x00000000 (0000ms, 0662ms total)
T0244 016:493 JLINK_ReadReg(R12)  returns 0x20000044 (0000ms, 0662ms total)
T0244 016:493 JLINK_ReadReg(R13 (SP))  returns 0x20004014 (0000ms, 0662ms total)
T0244 016:493 JLINK_ReadReg(R14)  returns 0x000009D5 (0000ms, 0662ms total)
T0244 016:493 JLINK_ReadReg(R15 (PC))  returns 0x00000A70 (0000ms, 0662ms total)
T0244 016:493 JLINK_ReadReg(XPSR)  returns 0x61000000 (0000ms, 0662ms total)
T0244 016:493 JLINK_ReadReg(MSP)  returns 0x20004014 (0000ms, 0662ms total)
T0244 016:493 JLINK_ReadReg(PSP)  returns 0x00000000 (0000ms, 0662ms total)
T0244 016:493 JLINK_ReadReg(CFBP)  returns 0x04000000 (0000ms, 0662ms total)
T0244 016:493 JLINK_ReadReg(FPSCR)  returns 0x03000000 (0000ms, 0662ms total)
T0244 016:493 JLINK_ReadReg(FPS0)  returns 0x00000000 (0000ms, 0662ms total)
T0244 016:493 JLINK_ReadReg(FPS1)  returns 0x00000000 (0000ms, 0662ms total)
T0244 016:493 JLINK_ReadReg(FPS2)  returns 0x00000000 (0000ms, 0662ms total)
T0244 016:493 JLINK_ReadReg(FPS3)  returns 0x00000000 (0000ms, 0662ms total)
T0244 016:493 JLINK_ReadReg(FPS4)  returns 0x00000000 (0000ms, 0662ms total)
T0244 016:493 JLINK_ReadReg(FPS5)  returns 0x00000000 (0000ms, 0662ms total)
T0244 016:493 JLINK_ReadReg(FPS6)  returns 0x00000000 (0000ms, 0662ms total)
T0244 016:493 JLINK_ReadReg(FPS7)  returns 0x00000000 (0000ms, 0662ms total)
T0244 016:493 JLINK_ReadReg(FPS8)  returns 0x00000000 (0000ms, 0662ms total)
T0244 016:493 JLINK_ReadReg(FPS9)  returns 0x00000000 (0000ms, 0662ms total)
T0244 016:493 JLINK_ReadReg(FPS10)  returns 0x00000000 (0000ms, 0662ms total)
T0244 016:493 JLINK_ReadReg(FPS11)  returns 0x00000000 (0000ms, 0662ms total)
T0244 016:493 JLINK_ReadReg(FPS12)  returns 0x00000000 (0000ms, 0662ms total)
T0244 016:493 JLINK_ReadReg(FPS13)  returns 0x00000000 (0000ms, 0662ms total)
T0244 016:493 JLINK_ReadReg(FPS14)  returns 0x00000000 (0000ms, 0662ms total)
T0244 016:493 JLINK_ReadReg(FPS15)  returns 0x00000000 (0000ms, 0662ms total)
T0244 016:493 JLINK_ReadReg(FPS16)  returns 0x00000000 (0000ms, 0662ms total)
T0244 016:493 JLINK_ReadReg(FPS17)  returns 0x00000000 (0000ms, 0662ms total)
T0244 016:493 JLINK_ReadReg(FPS18)  returns 0x00000000 (0000ms, 0662ms total)
T0244 016:493 JLINK_ReadReg(FPS19)  returns 0x00000000 (0000ms, 0662ms total)
T0244 016:493 JLINK_ReadReg(FPS20)  returns 0x00000000 (0000ms, 0662ms total)
T0244 016:493 JLINK_ReadReg(FPS21)  returns 0x00000000 (0000ms, 0662ms total)
T0244 016:493 JLINK_ReadReg(FPS22)  returns 0x00000000 (0000ms, 0662ms total)
T0244 016:493 JLINK_ReadReg(FPS23)  returns 0x00000000 (0000ms, 0662ms total)
T0244 016:493 JLINK_ReadReg(FPS24)  returns 0x00000000 (0000ms, 0662ms total)
T0244 016:493 JLINK_ReadReg(FPS25)  returns 0x00000000 (0000ms, 0662ms total)
T0244 016:493 JLINK_ReadReg(FPS26)  returns 0x00000000 (0000ms, 0662ms total)
T0244 016:493 JLINK_ReadReg(FPS27)  returns 0x00000000 (0000ms, 0662ms total)
T0244 016:493 JLINK_ReadReg(FPS28)  returns 0x00000000 (0000ms, 0662ms total)
T0244 016:493 JLINK_ReadReg(FPS29)  returns 0x00000000 (0000ms, 0662ms total)
T0244 016:493 JLINK_ReadReg(FPS30)  returns 0x00000000 (0000ms, 0662ms total)
T0244 016:493 JLINK_ReadReg(FPS31)  returns 0x00000000 (0000ms, 0662ms total)
T1B4C 016:493 JLINK_ReadMem (0x20004014, 0x0004 Bytes, ...) -- Read from C cache (4 bytes @ 0x20004014) - Data: 03 00 00 00  returns 0x00 (0000ms, 0662ms total)
T1B4C 016:493 JLINK_ReadMem (0x00000000, 0x0004 Bytes, ...) -- Read from C cache (4 bytes @ 0x00000000) - Data: 68 40 00 20  returns 0x00 (0000ms, 0662ms total)
T1B4C 016:493 JLINK_ReadMemU32(0xE0001004, 0x0001 Items, ...) - Data: EB 3F D9 11  returns 0x01 (0000ms, 0662ms total)
T1B4C 016:494 JLINK_ReadMem (0x2000402C, 0x0004 Bytes, ...) -- Read from C cache (4 bytes @ 0x2000402C) - Data: 00 00 00 00  returns 0x00 (0000ms, 0662ms total)
T1B4C 016:496 JLINK_ReadMem (0x00000A70, 0x003C Bytes, ...) -- Read from C cache (60 bytes @ 0x00000A70) - Data: 07 48 00 68 00 28 FB D0 03 48 4C 30 00 68 00 90 ...  returns 0x00 (0000ms, 0662ms total)
T0244 017:679 JLINK_Step() -- Read from C cache (2 bytes @ 0x00000A70) -- Read from C cache (4 bytes @ 0x00000A90) -- Simulated  returns 0x00 (0001ms, 0663ms total)
T0244 017:680 JLINK_ReadReg(R15 (PC))  returns 0x00000A72 (0000ms, 0663ms total)
T0244 017:680 JLINK_ReadReg(XPSR)  returns 0x61000000 (0000ms, 0663ms total)
T0244 017:680 JLINK_Step() -- Read from C cache (2 bytes @ 0x00000A72) -- Not simulated -- CPU_WriteMem(4 bytes @ 0xE0001004)  returns 0x00 (0009ms, 0672ms total)
T0244 017:689 JLINK_ReadReg(R15 (PC))  returns 0x00000A74 (0000ms, 0672ms total)
T0244 017:689 JLINK_ReadReg(XPSR)  returns 0x61000000 (0000ms, 0672ms total)
T0244 017:689 JLINK_Step() -- CPU_ReadMem(64 bytes @ 0x00000A40) -- Updating C cache (64 bytes @ 0x00000A40) -- Read from C cache (2 bytes @ 0x00000A74) -- CPU_ReadMem(4 bytes @ 0xE0001004) -- Simulated  returns 0x00 (0002ms, 0674ms total)
T0244 017:691 JLINK_ReadReg(R15 (PC))  returns 0x00000A76 (0000ms, 0674ms total)
T0244 017:691 JLINK_ReadReg(XPSR)  returns 0x61000000 (0000ms, 0674ms total)
T0244 017:691 JLINK_Step() -- Read from C cache (2 bytes @ 0x00000A76) -- Simulated  returns 0x00 (0000ms, 0674ms total)
T0244 017:691 JLINK_ReadReg(R15 (PC))  returns 0x00000A70 (0000ms, 0674ms total)
T0244 017:691 JLINK_ReadReg(XPSR)  returns 0x61000000 (0000ms, 0674ms total)
T0244 017:691 JLINK_ReadMem (0x00000A6E, 0x0002 Bytes, ...) -- Read from C cache (2 bytes @ 0x00000A6E) - Data: 00 BF  returns 0x00 (0000ms, 0674ms total)
T0244 017:691 JLINK_ReadReg(R0)  returns 0x00000000 (0000ms, 0674ms total)
T0244 017:691 JLINK_ReadReg(R1)  returns 0x40001000 (0000ms, 0674ms total)
T0244 017:691 JLINK_ReadReg(R2)  returns 0x50000508 (0000ms, 0674ms total)
T0244 017:691 JLINK_ReadReg(R3)  returns 0x00000000 (0000ms, 0674ms total)
T0244 017:691 JLINK_ReadReg(R4)  returns 0x00000000 (0000ms, 0674ms total)
T0244 017:691 JLINK_ReadReg(R5)  returns 0x20000004 (0000ms, 0674ms total)
T0244 017:691 JLINK_ReadReg(R6)  returns 0x00000000 (0000ms, 0674ms total)
T0244 017:691 JLINK_ReadReg(R7)  returns 0x00000000 (0000ms, 0674ms total)
T0244 017:691 JLINK_ReadReg(R8)  returns 0x00000000 (0000ms, 0674ms total)
T0244 017:691 JLINK_ReadReg(R9)  returns 0x00000000 (0000ms, 0674ms total)
T0244 017:691 JLINK_ReadReg(R10)  returns 0x00000AD0 (0000ms, 0674ms total)
T0244 017:691 JLINK_ReadReg(R11)  returns 0x00000000 (0000ms, 0674ms total)
T0244 017:691 JLINK_ReadReg(R12)  returns 0x20000044 (0000ms, 0674ms total)
T0244 017:691 JLINK_ReadReg(R13 (SP))  returns 0x20004014 (0000ms, 0674ms total)
T0244 017:691 JLINK_ReadReg(R14)  returns 0x000009D5 (0000ms, 0674ms total)
T0244 017:691 JLINK_ReadReg(R15 (PC))  returns 0x00000A70 (0000ms, 0674ms total)
T0244 017:691 JLINK_ReadReg(XPSR)  returns 0x61000000 (0000ms, 0674ms total)
T0244 017:691 JLINK_ReadReg(MSP)  returns 0x20004014 (0000ms, 0674ms total)
T0244 017:691 JLINK_ReadReg(PSP)  returns 0x00000000 (0000ms, 0674ms total)
T0244 017:691 JLINK_ReadReg(CFBP)  returns 0x04000000 (0000ms, 0674ms total)
T0244 017:691 JLINK_ReadReg(FPSCR)  returns 0x03000000 (0010ms, 0684ms total)
T0244 017:701 JLINK_ReadReg(FPS0)  returns 0x00000000 (0000ms, 0684ms total)
T0244 017:701 JLINK_ReadReg(FPS1)  returns 0x00000000 (0000ms, 0684ms total)
T0244 017:701 JLINK_ReadReg(FPS2)  returns 0x00000000 (0000ms, 0684ms total)
T0244 017:701 JLINK_ReadReg(FPS3)  returns 0x00000000 (0000ms, 0684ms total)
T0244 017:701 JLINK_ReadReg(FPS4)  returns 0x00000000 (0000ms, 0684ms total)
T0244 017:701 JLINK_ReadReg(FPS5)  returns 0x00000000 (0000ms, 0684ms total)
T0244 017:701 JLINK_ReadReg(FPS6)  returns 0x00000000 (0000ms, 0684ms total)
T0244 017:701 JLINK_ReadReg(FPS7)  returns 0x00000000 (0000ms, 0684ms total)
T0244 017:701 JLINK_ReadReg(FPS8)  returns 0x00000000 (0000ms, 0684ms total)
T0244 017:701 JLINK_ReadReg(FPS9)  returns 0x00000000 (0000ms, 0684ms total)
T0244 017:701 JLINK_ReadReg(FPS10)  returns 0x00000000 (0000ms, 0684ms total)
T0244 017:701 JLINK_ReadReg(FPS11)  returns 0x00000000 (0000ms, 0684ms total)
T0244 017:701 JLINK_ReadReg(FPS12)  returns 0x00000000 (0000ms, 0684ms total)
T0244 017:701 JLINK_ReadReg(FPS13)  returns 0x00000000 (0000ms, 0684ms total)
T0244 017:701 JLINK_ReadReg(FPS14)  returns 0x00000000 (0000ms, 0684ms total)
T0244 017:701 JLINK_ReadReg(FPS15)  returns 0x00000000 (0000ms, 0684ms total)
T0244 017:701 JLINK_ReadReg(FPS16)  returns 0x00000000 (0000ms, 0684ms total)
T0244 017:701 JLINK_ReadReg(FPS17)  returns 0x00000000 (0000ms, 0684ms total)
T0244 017:701 JLINK_ReadReg(FPS18)  returns 0x00000000 (0000ms, 0684ms total)
T0244 017:701 JLINK_ReadReg(FPS19)  returns 0x00000000 (0000ms, 0684ms total)
T0244 017:701 JLINK_ReadReg(FPS20)  returns 0x00000000 (0000ms, 0684ms total)
T0244 017:701 JLINK_ReadReg(FPS21)  returns 0x00000000 (0000ms, 0684ms total)
T0244 017:701 JLINK_ReadReg(FPS22)  returns 0x00000000 (0000ms, 0684ms total)
T0244 017:701 JLINK_ReadReg(FPS23)  returns 0x00000000 (0000ms, 0684ms total)
T0244 017:701 JLINK_ReadReg(FPS24)  returns 0x00000000 (0000ms, 0684ms total)
T0244 017:701 JLINK_ReadReg(FPS25)  returns 0x00000000 (0000ms, 0684ms total)
T0244 017:701 JLINK_ReadReg(FPS26)  returns 0x00000000 (0000ms, 0684ms total)
T0244 017:702 JLINK_ReadReg(FPS27)  returns 0x00000000 (0000ms, 0684ms total)
T0244 017:702 JLINK_ReadReg(FPS28)  returns 0x00000000 (0000ms, 0684ms total)
T0244 017:702 JLINK_ReadReg(FPS29)  returns 0x00000000 (0000ms, 0684ms total)
T0244 017:702 JLINK_ReadReg(FPS30)  returns 0x00000000 (0000ms, 0684ms total)
T0244 017:702 JLINK_ReadReg(FPS31)  returns 0x00000000 (0000ms, 0684ms total)
T1B4C 017:702 JLINK_ReadMem (0x20004014, 0x0004 Bytes, ...) -- CPU_ReadMem(64 bytes @ 0x20004000) -- Updating C cache (64 bytes @ 0x20004000) -- Read from C cache (4 bytes @ 0x20004014) - Data: 03 00 00 00  returns 0x00 (0001ms, 0685ms total)
T1B4C 017:703 JLINK_ReadMem (0x00000000, 0x0004 Bytes, ...) -- CPU_ReadMem(64 bytes @ 0x00000000) -- Updating C cache (64 bytes @ 0x00000000) -- Read from C cache (4 bytes @ 0x00000000) - Data: 68 40 00 20  returns 0x00 (0001ms, 0686ms total)
T1B4C 017:704 JLINK_ReadMemU32(0xE0001004, 0x0001 Items, ...) - Data: FA 3F D9 11  returns 0x01 (0000ms, 0686ms total)
T1B4C 017:705 JLINK_ReadMem (0x2000402C, 0x0004 Bytes, ...) -- Read from C cache (4 bytes @ 0x2000402C) - Data: 00 00 00 00  returns 0x00 (0001ms, 0687ms total)
T0244 018:997 JLINK_ReadMem (0x00000A70, 0x003C Bytes, ...) -- CPU_ReadMem(64 bytes @ 0x00000A80) -- Updating C cache (64 bytes @ 0x00000A80) -- Read from C cache (60 bytes @ 0x00000A70) - Data: 07 48 00 68 00 28 FB D0 03 48 4C 30 00 68 00 90 ...  returns 0x00 (0002ms, 0689ms total)
T0244 018:999 JLINK_Step() -- Read from C cache (2 bytes @ 0x00000A70) -- Read from C cache (4 bytes @ 0x00000A90) -- Simulated  returns 0x00 (0000ms, 0689ms total)
T0244 018:999 JLINK_ReadReg(R15 (PC))  returns 0x00000A72 (0000ms, 0689ms total)
T0244 018:999 JLINK_ReadReg(XPSR)  returns 0x61000000 (0000ms, 0689ms total)
T0244 018:999 JLINK_Step() -- Read from C cache (2 bytes @ 0x00000A72) -- Not simulated -- CPU_WriteMem(4 bytes @ 0xE0001004)  returns 0x00 (0009ms, 0698ms total)
T0244 019:008 JLINK_ReadReg(R15 (PC))  returns 0x00000A74 (0000ms, 0698ms total)
T0244 019:008 JLINK_ReadReg(XPSR)  returns 0x61000000 (0000ms, 0698ms total)
T0244 019:008 JLINK_Step() -- CPU_ReadMem(64 bytes @ 0x00000A40) -- Updating C cache (64 bytes @ 0x00000A40) -- Read from C cache (2 bytes @ 0x00000A74) -- CPU_ReadMem(4 bytes @ 0xE0001004) -- Simulated  returns 0x00 (0002ms, 0700ms total)
T0244 019:010 JLINK_ReadReg(R15 (PC))  returns 0x00000A76 (0000ms, 0700ms total)
T0244 019:010 JLINK_ReadReg(XPSR)  returns 0x61000000 (0000ms, 0700ms total)
T0244 019:010 JLINK_Step() -- Read from C cache (2 bytes @ 0x00000A76) -- Simulated  returns 0x00 (0000ms, 0700ms total)
T0244 019:010 JLINK_ReadReg(R15 (PC))  returns 0x00000A70 (0000ms, 0700ms total)
T0244 019:010 JLINK_ReadReg(XPSR)  returns 0x61000000 (0000ms, 0700ms total)
T0244 019:010 JLINK_ReadMem (0x00000A6E, 0x0002 Bytes, ...) -- Read from C cache (2 bytes @ 0x00000A6E) - Data: 00 BF  returns 0x00 (0000ms, 0700ms total)
T0244 019:010 JLINK_ReadReg(R0)  returns 0x00000000 (0000ms, 0700ms total)
T0244 019:010 JLINK_ReadReg(R1)  returns 0x40001000 (0000ms, 0700ms total)
T0244 019:010 JLINK_ReadReg(R2)  returns 0x50000508 (0000ms, 0700ms total)
T0244 019:010 JLINK_ReadReg(R3)  returns 0x00000000 (0000ms, 0700ms total)
T0244 019:010 JLINK_ReadReg(R4)  returns 0x00000000 (0000ms, 0700ms total)
T0244 019:010 JLINK_ReadReg(R5)  returns 0x20000004 (0000ms, 0700ms total)
T0244 019:010 JLINK_ReadReg(R6)  returns 0x00000000 (0000ms, 0700ms total)
T0244 019:010 JLINK_ReadReg(R7)  returns 0x00000000 (0000ms, 0700ms total)
T0244 019:010 JLINK_ReadReg(R8)  returns 0x00000000 (0000ms, 0700ms total)
T0244 019:010 JLINK_ReadReg(R9)  returns 0x00000000 (0000ms, 0700ms total)
T0244 019:010 JLINK_ReadReg(R10)  returns 0x00000AD0 (0000ms, 0700ms total)
T0244 019:010 JLINK_ReadReg(R11)  returns 0x00000000 (0000ms, 0700ms total)
T0244 019:010 JLINK_ReadReg(R12)  returns 0x20000044 (0000ms, 0700ms total)
T0244 019:010 JLINK_ReadReg(R13 (SP))  returns 0x20004014 (0000ms, 0700ms total)
T0244 019:010 JLINK_ReadReg(R14)  returns 0x000009D5 (0000ms, 0700ms total)
T0244 019:010 JLINK_ReadReg(R15 (PC))  returns 0x00000A70 (0000ms, 0700ms total)
T0244 019:010 JLINK_ReadReg(XPSR)  returns 0x61000000 (0000ms, 0700ms total)
T0244 019:010 JLINK_ReadReg(MSP)  returns 0x20004014 (0000ms, 0700ms total)
T0244 019:010 JLINK_ReadReg(PSP)  returns 0x00000000 (0000ms, 0700ms total)
T0244 019:010 JLINK_ReadReg(CFBP)  returns 0x04000000 (0000ms, 0700ms total)
T0244 019:010 JLINK_ReadReg(FPSCR)  returns 0x03000000 (0011ms, 0711ms total)
T0244 019:021 JLINK_ReadReg(FPS0)  returns 0x00000000 (0000ms, 0711ms total)
T0244 019:021 JLINK_ReadReg(FPS1)  returns 0x00000000 (0000ms, 0711ms total)
T0244 019:021 JLINK_ReadReg(FPS2)  returns 0x00000000 (0000ms, 0711ms total)
T0244 019:021 JLINK_ReadReg(FPS3)  returns 0x00000000 (0000ms, 0711ms total)
T0244 019:021 JLINK_ReadReg(FPS4)  returns 0x00000000 (0000ms, 0711ms total)
T0244 019:021 JLINK_ReadReg(FPS5)  returns 0x00000000 (0000ms, 0711ms total)
T0244 019:021 JLINK_ReadReg(FPS6)  returns 0x00000000 (0000ms, 0711ms total)
T0244 019:021 JLINK_ReadReg(FPS7)  returns 0x00000000 (0000ms, 0711ms total)
T0244 019:021 JLINK_ReadReg(FPS8)  returns 0x00000000 (0000ms, 0711ms total)
T0244 019:021 JLINK_ReadReg(FPS9)  returns 0x00000000 (0000ms, 0711ms total)
T0244 019:021 JLINK_ReadReg(FPS10)  returns 0x00000000 (0000ms, 0711ms total)
T0244 019:021 JLINK_ReadReg(FPS11)  returns 0x00000000 (0000ms, 0711ms total)
T0244 019:021 JLINK_ReadReg(FPS12)  returns 0x00000000 (0000ms, 0711ms total)
T0244 019:021 JLINK_ReadReg(FPS13)  returns 0x00000000 (0000ms, 0711ms total)
T0244 019:021 JLINK_ReadReg(FPS14)  returns 0x00000000 (0000ms, 0711ms total)
T0244 019:021 JLINK_ReadReg(FPS15)  returns 0x00000000 (0000ms, 0711ms total)
T0244 019:021 JLINK_ReadReg(FPS16)  returns 0x00000000 (0000ms, 0711ms total)
T0244 019:021 JLINK_ReadReg(FPS17)  returns 0x00000000 (0000ms, 0711ms total)
T0244 019:021 JLINK_ReadReg(FPS18)  returns 0x00000000 (0000ms, 0711ms total)
T0244 019:021 JLINK_ReadReg(FPS19)  returns 0x00000000 (0000ms, 0711ms total)
T0244 019:021 JLINK_ReadReg(FPS20)  returns 0x00000000 (0000ms, 0711ms total)
T0244 019:021 JLINK_ReadReg(FPS21)  returns 0x00000000 (0000ms, 0711ms total)
T0244 019:021 JLINK_ReadReg(FPS22)  returns 0x00000000 (0000ms, 0711ms total)
T0244 019:021 JLINK_ReadReg(FPS23)  returns 0x00000000 (0000ms, 0711ms total)
T0244 019:021 JLINK_ReadReg(FPS24)  returns 0x00000000 (0000ms, 0711ms total)
T0244 019:021 JLINK_ReadReg(FPS25)  returns 0x00000000 (0000ms, 0711ms total)
T0244 019:021 JLINK_ReadReg(FPS26)  returns 0x00000000 (0000ms, 0711ms total)
T0244 019:021 JLINK_ReadReg(FPS27)  returns 0x00000000 (0000ms, 0711ms total)
T0244 019:021 JLINK_ReadReg(FPS28)  returns 0x00000000 (0000ms, 0711ms total)
T0244 019:021 JLINK_ReadReg(FPS29)  returns 0x00000000 (0000ms, 0711ms total)
T0244 019:021 JLINK_ReadReg(FPS30)  returns 0x00000000 (0000ms, 0711ms total)
T0244 019:021 JLINK_ReadReg(FPS31)  returns 0x00000000 (0000ms, 0711ms total)
T1B4C 019:021 JLINK_ReadMem (0x20004014, 0x0004 Bytes, ...) -- CPU_ReadMem(64 bytes @ 0x20004000) -- Updating C cache (64 bytes @ 0x20004000) -- Read from C cache (4 bytes @ 0x20004014) - Data: 03 00 00 00  returns 0x00 (0002ms, 0713ms total)
T1B4C 019:023 JLINK_ReadMem (0x00000000, 0x0004 Bytes, ...) -- CPU_ReadMem(64 bytes @ 0x00000000) -- Updating C cache (64 bytes @ 0x00000000) -- Read from C cache (4 bytes @ 0x00000000) - Data: 68 40 00 20  returns 0x00 (0001ms, 0714ms total)
T1B4C 019:024 JLINK_ReadMemU32(0xE0001004, 0x0001 Items, ...) - Data: 08 40 D9 11  returns 0x01 (0000ms, 0714ms total)
T1B4C 019:025 JLINK_ReadMem (0x2000402C, 0x0004 Bytes, ...) -- Read from C cache (4 bytes @ 0x2000402C) - Data: 00 00 00 00  returns 0x00 (0000ms, 0714ms total)
T0244 020:186 JLINK_ReadMem (0x00000A70, 0x003C Bytes, ...) -- CPU_ReadMem(64 bytes @ 0x00000A80) -- Updating C cache (64 bytes @ 0x00000A80) -- Read from C cache (60 bytes @ 0x00000A70) - Data: 07 48 00 68 00 28 FB D0 03 48 4C 30 00 68 00 90 ...  returns 0x00 (0001ms, 0715ms total)
T0244 020:187 JLINK_Step() -- Read from C cache (2 bytes @ 0x00000A70) -- Read from C cache (4 bytes @ 0x00000A90) -- Simulated  returns 0x00 (0001ms, 0716ms total)
T0244 020:188 JLINK_ReadReg(R15 (PC))  returns 0x00000A72 (0000ms, 0716ms total)
T0244 020:188 JLINK_ReadReg(XPSR)  returns 0x61000000 (0000ms, 0716ms total)
T0244 020:188 JLINK_Step() -- Read from C cache (2 bytes @ 0x00000A72) -- Not simulated -- CPU_WriteMem(4 bytes @ 0xE0001004)  returns 0x00 (0009ms, 0725ms total)
T0244 020:197 JLINK_ReadReg(R15 (PC))  returns 0x00000A74 (0000ms, 0725ms total)
T0244 020:197 JLINK_ReadReg(XPSR)  returns 0x61000000 (0000ms, 0725ms total)
T0244 020:197 JLINK_Step() -- CPU_ReadMem(64 bytes @ 0x00000A40) -- Updating C cache (64 bytes @ 0x00000A40) -- Read from C cache (2 bytes @ 0x00000A74) -- CPU_ReadMem(4 bytes @ 0xE0001004) -- Simulated  returns 0x00 (0002ms, 0727ms total)
T0244 020:199 JLINK_ReadReg(R15 (PC))  returns 0x00000A76 (0000ms, 0727ms total)
T0244 020:199 JLINK_ReadReg(XPSR)  returns 0x61000000 (0000ms, 0727ms total)
T0244 020:199 JLINK_Step() -- Read from C cache (2 bytes @ 0x00000A76) -- Simulated  returns 0x00 (0000ms, 0727ms total)
T0244 020:199 JLINK_ReadReg(R15 (PC))  returns 0x00000A70 (0000ms, 0727ms total)
T0244 020:199 JLINK_ReadReg(XPSR)  returns 0x61000000 (0000ms, 0727ms total)
T0244 020:199 JLINK_ReadMem (0x00000A6E, 0x0002 Bytes, ...) -- Read from C cache (2 bytes @ 0x00000A6E) - Data: 00 BF  returns 0x00 (0000ms, 0727ms total)
T0244 020:199 JLINK_ReadReg(R0)  returns 0x00000000 (0000ms, 0727ms total)
T0244 020:199 JLINK_ReadReg(R1)  returns 0x40001000 (0000ms, 0727ms total)
T0244 020:199 JLINK_ReadReg(R2)  returns 0x50000508 (0000ms, 0727ms total)
T0244 020:199 JLINK_ReadReg(R3)  returns 0x00000000 (0000ms, 0727ms total)
T0244 020:199 JLINK_ReadReg(R4)  returns 0x00000000 (0000ms, 0727ms total)
T0244 020:199 JLINK_ReadReg(R5)  returns 0x20000004 (0000ms, 0727ms total)
T0244 020:199 JLINK_ReadReg(R6)  returns 0x00000000 (0000ms, 0727ms total)
T0244 020:199 JLINK_ReadReg(R7)  returns 0x00000000 (0000ms, 0727ms total)
T0244 020:199 JLINK_ReadReg(R8)  returns 0x00000000 (0000ms, 0727ms total)
T0244 020:199 JLINK_ReadReg(R9)  returns 0x00000000 (0000ms, 0727ms total)
T0244 020:199 JLINK_ReadReg(R10)  returns 0x00000AD0 (0000ms, 0727ms total)
T0244 020:199 JLINK_ReadReg(R11)  returns 0x00000000 (0000ms, 0727ms total)
T0244 020:199 JLINK_ReadReg(R12)  returns 0x20000044 (0000ms, 0727ms total)
T0244 020:199 JLINK_ReadReg(R13 (SP))  returns 0x20004014 (0000ms, 0727ms total)
T0244 020:199 JLINK_ReadReg(R14)  returns 0x000009D5 (0000ms, 0727ms total)
